T7D2C 000:005.020   SEGGER J-Link V7.98 Log File
T7D2C 000:005.125   DLL Compiled: Jul 17 2024 15:27:15
T7D2C 000:005.168   Logging started @ 2024-07-19 16:51
T7D2C 000:005.173   Process: C:\Users\28382\AppData\Local\Keil_v5\UV4\UV4.exe
T7D2C 000:005.180 - 5.177ms
T7D2C 000:005.187 JLINK_SetWarnOutHandler(...)
T7D2C 000:005.192 - 0.005ms
T7D2C 000:005.197 JLINK_OpenEx(...)
T7D2C 000:007.213   Firmware: J-Link  V11 compiled Mar 4 2024 13:16:08
T7D2C 000:008.789   Firmware: J-Link  V11 compiled Mar 4 2024 13:16:08
T7D2C 000:011.127   Hardware: V11.00
T7D2C 000:011.142   S/N: 601012415
T7D2C 000:011.151   OEM: SEGGER
T7D2C 000:011.160   Feature(s): FlashBP, GDB, JFlash, FlashDL, RDI
T7D2C 000:012.825   Bootloader: (Could not read)
T7D2C 000:014.056   USB speed mode: High speed (480 MBit/s)
T7D2C 000:014.486   TELNET listener socket opened on port 19021
T7D2C 000:014.646   WEBSRV WEBSRV_Init(): Starting webserver thread(s)
T7D2C 000:014.803   WEBSRV Webserver running on local port 19080
T7D2C 000:014.936   Looking for J-Link GUI Server exe at: C:\Users\28382\AppData\Local\Keil_v5\ARM\Segger\JLinkGUIServer.exe
T7D2C 000:015.047   Looking for J-Link GUI Server exe at: C:\Program Files\SEGGER\JLink_V798\JLinkGUIServer.exe
T7D2C 000:015.090   Forking J-Link GUI Server: C:\Program Files\SEGGER\JLink_V798\JLinkGUIServer.exe
T7D2C 000:035.051   J-Link GUI Server info: "J-Link GUI server V7.98 "
T7D2C 000:038.751 - 33.547ms returns "O.K."
T7D2C 000:038.777 JLINK_GetEmuCaps()
T7D2C 000:038.788 - 0.008ms returns 0xB9FF7BBF
T7D2C 000:038.798 JLINK_TIF_GetAvailable(...)
T7D2C 000:039.159 - 0.361ms
T7D2C 000:039.175 JLINK_SetErrorOutHandler(...)
T7D2C 000:039.181 - 0.006ms
T7D2C 000:039.211 JLINK_ExecCommand("ProjectFile = "C:\ti\mspm0_sdk_2_01_00_03\examples\nortos\LP_MSPM0L1306\driverlib\empty_driverlib_src\keil\JLinkSettings.ini"", ...). 
T7D2C 000:048.567   Ref file found at: C:\Users\28382\AppData\Local\Keil_v5\ARM\Segger\JLinkDevices.ref
T7D2C 000:048.659   REF file references invalid XML file: C:\Program Files\SEGGER\JLink_V798\JLinkDevices.xml
T7D2C 000:049.621 - 10.410ms returns 0x00
T7D2C 000:053.229 JLINK_ExecCommand("Device = MSPM0L1306", ...). 
T7D2C 000:057.247   Device "MSPM0L1306" selected.
T7D2C 000:057.661 - 4.412ms returns 0x00
T7D2C 000:057.674 JLINK_ExecCommand("DisableConnectionTimeout", ...). 
T7D2C 000:057.682   ERROR: Unknown command
T7D2C 000:057.689 - 0.008ms returns 0x01
T7D2C 000:057.699 JLINK_GetHardwareVersion()
T7D2C 000:057.705 - 0.008ms returns 110000
T7D2C 000:057.710 JLINK_GetDLLVersion()
T7D2C 000:057.715 - 0.004ms returns 79800
T7D2C 000:057.720 JLINK_GetOEMString(...)
T7D2C 000:057.725 JLINK_GetFirmwareString(...)
T7D2C 000:057.730 - 0.004ms
T7D2C 000:065.155 JLINK_GetDLLVersion()
T7D2C 000:065.176 - 0.021ms returns 79800
T7D2C 000:065.183 JLINK_GetCompileDateTime()
T7D2C 000:065.187 - 0.004ms
T7D2C 000:067.633 JLINK_GetFirmwareString(...)
T7D2C 000:067.644 - 0.011ms
T7D2C 000:070.093 JLINK_GetHardwareVersion()
T7D2C 000:070.105 - 0.012ms returns 110000
T7D2C 000:072.191 JLINK_GetSN()
T7D2C 000:072.203 - 0.011ms returns 601012415
T7D2C 000:074.742 JLINK_GetOEMString(...)
T7D2C 000:079.432 JLINK_TIF_Select(JLINKARM_TIF_SWD)
T7D2C 000:080.873 - 1.441ms returns 0x00
T7D2C 000:080.888 JLINK_HasError()
T7D2C 000:080.914 JLINK_SetSpeed(1000)
T7D2C 000:081.248 - 0.335ms
T7D2C 000:081.261 JLINK_GetId()
T7D2C 000:084.720   InitTarget() start
T7D2C 000:084.738    J-Link Script File: Executing InitTarget()
T7D2C 000:089.662   DAP initialized successfully.
T7D2C 000:093.067   Setting up LPM debug bits
T7D2C 000:096.963   InitTarget() end - Took 9.70ms
T7D2C 000:101.245   Found SW-DP with ID 0x6BA02477
T7D2C 000:108.145   DPIDR: 0x6BA02477
T7D2C 000:110.957   CoreSight SoC-400 or earlier
T7D2C 000:113.911   Scanning AP map to find all available APs
T7D2C 000:121.330   AP[5]: Stopped AP scan as end of AP map has been reached
T7D2C 000:124.084   AP[0]: AHB-AP (IDR: 0x84770001)
T7D2C 000:126.737   AP[1]: MEM-AP (IDR: 0x002E0001)
T7D2C 000:130.052   AP[2]: JTAG-AP (IDR: 0x002E0000)
T7D2C 000:133.404   AP[3]: MEM-AP (IDR: 0x002E0003)
T7D2C 000:135.769   AP[4]: MEM-AP (IDR: 0x002E0002)
T7D2C 000:138.751   Iterating through AP map to find AHB-AP to use
T7D2C 000:142.661   AP[0]: Core found
T7D2C 000:145.303   AP[0]: AHB-AP ROM base: 0xF0000000
T7D2C 000:150.052   CPUID register: 0x410CC601. Implementer code: 0x41 (ARM)
T7D2C 000:153.019   Found Cortex-M0 r0p1, Little endian.
T7D2C 000:153.797   -- Max. mem block: 0x00004E20
T7D2C 000:157.893   Cortex-M: The connected J-Link (S/N 601012415) uses an old firmware module: V2 (current is 3)
T7D2C 000:157.971   CPU_ReadMem(4 bytes @ 0xE000EDF0)
T7D2C 000:158.625   CPU_WriteMem(4 bytes @ 0xE000EDF0)
T7D2C 000:159.344   CPU_ReadMem(4 bytes @ 0xE0002000)
T7D2C 000:162.916   FPUnit: 4 code (BP) slots and 0 literal slots
T7D2C 000:162.934   CPU_ReadMem(4 bytes @ 0xE000EDFC)
T7D2C 000:163.594   CPU_WriteMem(4 bytes @ 0xE000EDFC)
T7D2C 000:164.886   CPU_ReadMem(4 bytes @ 0xE0001000)
T7D2C 000:165.590   CPU_WriteMem(4 bytes @ 0xE0001000)
T7D2C 000:170.227   CoreSight components:
T7D2C 000:173.183   ROMTbl[0] @ F0000000
T7D2C 000:173.203   CPU_ReadMem(64 bytes @ 0xF0000000)
T7D2C 000:174.594   CPU_ReadMem(32 bytes @ 0xE00FFFE0)
T7D2C 000:179.163   [0][0]: E00FF000 CID B105100D PID 000BB4C0 ROM Table
T7D2C 000:182.089   ROMTbl[1] @ E00FF000
T7D2C 000:182.109   CPU_ReadMem(64 bytes @ 0xE00FF000)
T7D2C 000:183.873   CPU_ReadMem(32 bytes @ 0xE000EFE0)
T7D2C 000:187.695   [1][0]: E000E000 CID B105E00D PID 000BB008 SCS
T7D2C 000:187.715   CPU_ReadMem(32 bytes @ 0xE0001FE0)
T7D2C 000:191.567   [1][1]: E0001000 CID B105E00D PID 000BB00A DWT
T7D2C 000:191.584   CPU_ReadMem(32 bytes @ 0xE0002FE0)
T7D2C 000:196.592   [1][2]: E0002000 CID B105E00D PID 000BB00B FPB
T7D2C 000:197.222 - 115.959ms returns 0x6BA02477
T7D2C 000:197.309 JLINK_GetDLLVersion()
T7D2C 000:197.319 - 0.009ms returns 79800
T7D2C 000:197.327 JLINK_CORE_GetFound()
T7D2C 000:197.334 - 0.006ms returns 0x60000FF
T7D2C 000:197.343 JLINK_GetDebugInfo(0x100 = JLINKARM_ROM_TABLE_ADDR_INDEX)
T7D2C 000:197.350   Value=0xF0000000
T7D2C 000:197.359 - 0.017ms returns 0
T7D2C 000:200.587 JLINK_GetDebugInfo(0x100 = JLINKARM_ROM_TABLE_ADDR_INDEX)
T7D2C 000:200.599   Value=0xF0000000
T7D2C 000:200.608 - 0.022ms returns 0
T7D2C 000:200.616 JLINK_GetDebugInfo(0x101 = JLINKARM_DEBUG_INFO_ETM_ADDR_INDEX)
T7D2C 000:200.622   Value=0x00000000
T7D2C 000:200.632 - 0.015ms returns 0
T7D2C 000:200.657 JLINK_ReadMemEx(0xE0041FF0, 0x10 Bytes, Flags = 0x02000004)
T7D2C 000:200.695   CPU_ReadMem(16 bytes @ 0xE0041FF0)
T7D2C 000:201.508   Data:  00 00 00 00 00 00 00 00 00 00 00 00 00 00 00 00
T7D2C 000:201.522 - 0.865ms returns 16 (0x10)
T7D2C 000:201.531 JLINK_GetDebugInfo(0x102 = JLINKARM_DEBUG_INFO_MTB_ADDR_INDEX)
T7D2C 000:201.537   Value=0x00000000
T7D2C 000:201.546 - 0.015ms returns 0
T7D2C 000:201.553 JLINK_GetDebugInfo(0x103 = JLINKARM_DEBUG_INFO_TPIU_ADDR_INDEX)
T7D2C 000:201.560   Value=0x00000000
T7D2C 000:201.569 - 0.015ms returns 0
T7D2C 000:201.576 JLINK_GetDebugInfo(0x104 = JLINKARM_DEBUG_INFO_ITM_ADDR_INDEX)
T7D2C 000:201.582   Value=0xE0000000
T7D2C 000:201.591 - 0.015ms returns 0
T7D2C 000:201.598 JLINK_GetDebugInfo(0x105 = JLINKARM_DEBUG_INFO_DWT_ADDR_INDEX)
T7D2C 000:201.604   Value=0xE0001000
T7D2C 000:201.613 - 0.015ms returns 0
T7D2C 000:201.620 JLINK_GetDebugInfo(0x106 = JLINKARM_DEBUG_INFO_FPB_ADDR_INDEX)
T7D2C 000:201.626   Value=0xE0002000
T7D2C 000:201.635 - 0.015ms returns 0
T7D2C 000:201.642 JLINK_GetDebugInfo(0x107 = JLINKARM_DEBUG_INFO_NVIC_ADDR_INDEX)
T7D2C 000:201.648   Value=0xE000E000
T7D2C 000:201.656 - 0.014ms returns 0
T7D2C 000:201.664 JLINK_GetDebugInfo(0x10C = JLINKARM_DEBUG_INFO_DBG_ADDR_INDEX)
T7D2C 000:201.670   Value=0xE000EDF0
T7D2C 000:201.679 - 0.015ms returns 0
T7D2C 000:201.686 JLINK_GetDebugInfo(0x01 = Unknown)
T7D2C 000:201.692   Value=0x00000000
T7D2C 000:201.700 - 0.015ms returns 0
T7D2C 000:201.709 JLINK_ReadMemU32(0xE000ED00, 0x1 Items)
T7D2C 000:201.718   CPU_ReadMem(4 bytes @ 0xE000ED00)
T7D2C 000:202.486   Data:  01 C6 0C 41
T7D2C 000:202.506   Debug reg: CPUID
T7D2C 000:202.519 - 0.810ms returns 1 (0x1)
T7D2C 000:202.532 JLINK_GetDebugInfo(0x10F = JLINKARM_DEBUG_INFO_HAS_CORTEX_M_SECURITY_EXT_INDEX)
T7D2C 000:202.541   Value=0x00000000
T7D2C 000:202.553 - 0.022ms returns 0
T7D2C 000:202.563 JLINK_HasError()
T7D2C 000:202.577 JLINK_SetResetType(JLINKARM_CM3_RESET_TYPE_NORMAL)
T7D2C 000:202.591 - 0.015ms returns JLINKARM_CM3_RESET_TYPE_NORMAL
T7D2C 000:202.602 JLINK_Reset()
T7D2C 000:205.558   ResetTarget() start
T7D2C 000:205.575    J-Link Script File: Executing ResetTarget()
T7D2C 000:205.587   CPU_ReadMem(4 bytes @ 0xE000EDF0)
T7D2C 000:206.223   CPU is running
T7D2C 000:206.234   CPU_WriteMem(4 bytes @ 0xE000EDF0)
T7D2C 000:206.848   CPU_ReadMem(4 bytes @ 0x400B0300)
T7D2C 000:207.461   CPU_ReadMem(4 bytes @ 0xE000EDFC)
T7D2C 000:208.099   CPU is running
T7D2C 000:208.115   CPU_WriteMem(4 bytes @ 0xE000EDFC)
T7D2C 000:208.721   CPU is running
T7D2C 000:208.737   CPU_WriteMem(4 bytes @ 0x400B0300)
T7D2C 000:209.354   CPU is running
T7D2C 000:209.376   CPU_WriteMem(4 bytes @ 0x400B0304)
T7D2C 000:210.180   CPU_ReadMem(4 bytes @ 0xE000EDF0)
T7D2C 000:215.240   DAP initialized successfully.
T7D2C 000:215.260   CPU is running
T7D2C 000:215.270   CPU_WriteMem(4 bytes @ 0xE000EDFC)
T7D2C 000:218.951   ResetTarget() end - Took 10.3ms
T7D2C 000:225.735   CPU_WriteMem(4 bytes @ 0xE0002000)
T7D2C 000:226.730   CPU_ReadMem(4 bytes @ 0xE000EDFC)
T7D2C 000:227.471   CPU_ReadMem(4 bytes @ 0xE0001000)
T7D2C 000:228.090   CPU_WriteMem(4 bytes @ 0xE0001000)
T7D2C 000:228.765 - 26.162ms
T7D2C 000:228.851 JLINK_Halt()
T7D2C 000:228.861 - 0.010ms returns 0x00
T7D2C 000:228.871 JLINK_ReadMemU32(0xE000EDF0, 0x1 Items)
T7D2C 000:228.886   CPU_ReadMem(4 bytes @ 0xE000EDF0)
T7D2C 000:229.597   Data:  03 00 03 00
T7D2C 000:229.617   Debug reg: DHCSR
T7D2C 000:229.632 - 0.760ms returns 1 (0x1)
T7D2C 000:229.667 JLINK_WriteU32_64(0xE000EDF0, 0xA05F0003)
T7D2C 000:229.673   Debug reg: DHCSR
T7D2C 000:230.079   CPU_WriteMem(4 bytes @ 0xE000EDF0)
T7D2C 000:230.723 - 1.056ms returns 0 (0x00000000)
T7D2C 000:230.736 JLINK_WriteU32_64(0xE000EDFC, 0x01000000)
T7D2C 000:230.743   Debug reg: DEMCR
T7D2C 000:230.755   CPU_WriteMem(4 bytes @ 0xE000EDFC)
T7D2C 000:232.137 - 1.400ms returns 0 (0x00000000)
T7D2C 000:245.212 JLINK_GetHWStatus(...)
T7D2C 000:245.538 - 0.326ms returns 0
T7D2C 000:253.138 JLINK_GetNumBPUnits(Type = 0xFFFFFF00)
T7D2C 000:253.155 - 0.017ms returns 0x04
T7D2C 000:253.163 JLINK_GetNumBPUnits(Type = 0xF0)
T7D2C 000:253.170 - 0.006ms returns 0x2000
T7D2C 000:253.182 JLINK_GetNumWPUnits()
T7D2C 000:253.191 - 0.009ms returns 2
T7D2C 000:264.704 JLINK_GetSpeed()
T7D2C 000:264.726 - 0.021ms returns 1000
T7D2C 000:269.266 JLINK_ReadMemU32(0xE000E004, 0x1 Items)
T7D2C 000:269.289   CPU_ReadMem(4 bytes @ 0xE000E004)
T7D2C 000:269.965   Data:  00 00 00 00
T7D2C 000:269.979 - 0.713ms returns 1 (0x1)
T7D2C 000:269.990 JLINK_Halt()
T7D2C 000:269.995 - 0.005ms returns 0x00
T7D2C 000:270.000 JLINK_IsHalted()
T7D2C 000:270.006 - 0.005ms returns TRUE
T7D2C 000:273.836 JLINK_WriteMem(0x20000000, 0x24C Bytes, ...)
T7D2C 000:273.844   Data:  00 BE 0A E0 0D 78 2D 06 68 40 08 24 40 00 00 D3 ...
T7D2C 000:274.072   CPU_WriteMem(588 bytes @ 0x20000000)
T7D2C 000:281.845 - 8.009ms returns 0x24C
T7D2C 000:281.901 JLINK_HasError()
T7D2C 000:281.928 JLINK_WriteReg(R0, 0x00000000)
T7D2C 000:281.940 - 0.029ms returns 0
T7D2C 000:281.948 JLINK_WriteReg(R1, 0x01F78A40)
T7D2C 000:281.955 - 0.007ms returns 0
T7D2C 000:281.963 JLINK_WriteReg(R2, 0x00000001)
T7D2C 000:281.969 - 0.006ms returns 0
T7D2C 000:281.977 JLINK_WriteReg(R3, 0x00000000)
T7D2C 000:281.983 - 0.006ms returns 0
T7D2C 000:281.991 JLINK_WriteReg(R4, 0x00000000)
T7D2C 000:281.997 - 0.006ms returns 0
T7D2C 000:282.005 JLINK_WriteReg(R5, 0x00000000)
T7D2C 000:282.012 - 0.006ms returns 0
T7D2C 000:282.019 JLINK_WriteReg(R6, 0x00000000)
T7D2C 000:282.026 - 0.006ms returns 0
T7D2C 000:282.033 JLINK_WriteReg(R7, 0x00000000)
T7D2C 000:282.090 - 0.057ms returns 0
T7D2C 000:282.105 JLINK_WriteReg(R8, 0x00000000)
T7D2C 000:282.112 - 0.012ms returns 0
T7D2C 000:282.119 JLINK_WriteReg(R9, 0x20000248)
T7D2C 000:282.126 - 0.006ms returns 0
T7D2C 000:282.134 JLINK_WriteReg(R10, 0x00000000)
T7D2C 000:282.140 - 0.006ms returns 0
T7D2C 000:282.148 JLINK_WriteReg(R11, 0x00000000)
T7D2C 000:282.155 - 0.006ms returns 0
T7D2C 000:282.162 JLINK_WriteReg(R12, 0x00000000)
T7D2C 000:282.169 - 0.006ms returns 0
T7D2C 000:282.177 JLINK_WriteReg(R13 (SP), 0x20001000)
T7D2C 000:282.184 - 0.007ms returns 0
T7D2C 000:282.192 JLINK_WriteReg(R14, 0x20000001)
T7D2C 000:282.198 - 0.006ms returns 0
T7D2C 000:282.211 JLINK_WriteReg(R15 (PC), 0x20000038)
T7D2C 000:282.218 - 0.012ms returns 0
T7D2C 000:282.226 JLINK_WriteReg(XPSR, 0x01000000)
T7D2C 000:282.232 - 0.006ms returns 0
T7D2C 000:282.240 JLINK_WriteReg(MSP, 0x20001000)
T7D2C 000:282.246 - 0.006ms returns 0
T7D2C 000:282.254 JLINK_WriteReg(PSP, 0x20001000)
T7D2C 000:282.260 - 0.006ms returns 0
T7D2C 000:282.268 JLINK_WriteReg(CFBP, 0x00000000)
T7D2C 000:282.274 - 0.006ms returns 0
T7D2C 000:282.282 JLINK_SetBPEx(Addr = 0x20000000, Type = 0xFFFFFFF2)
T7D2C 000:282.294   CPU_ReadMem(2 bytes @ 0x20000000)
T7D2C 000:283.000 - 0.717ms returns 0x00000001
T7D2C 000:283.015 JLINK_Go()
T7D2C 000:283.025   CPU_WriteMem(2 bytes @ 0x20000000)
T7D2C 000:283.725   CPU_ReadMem(4 bytes @ 0xE0001000)
T7D2C 000:284.350   CPU_WriteMem(4 bytes @ 0xE0001000)
T7D2C 000:284.960   CPU_WriteMem(4 bytes @ 0xE0002008)
T7D2C 000:284.971   CPU_WriteMem(4 bytes @ 0xE000200C)
T7D2C 000:284.977   CPU_WriteMem(4 bytes @ 0xE0002010)
T7D2C 000:284.983   CPU_WriteMem(4 bytes @ 0xE0002014)
T7D2C 000:286.591   CPU_WriteMem(4 bytes @ 0xE0001004)
T7D2C 000:296.472   Memory map 'after startup completion point' is active
T7D2C 000:296.506 - 13.490ms
T7D2C 000:296.518 JLINK_IsHalted()
T7D2C 000:302.939   CPU_ReadMem(2 bytes @ 0x20000000)
T7D2C 000:303.609 - 7.090ms returns TRUE
T7D2C 000:303.630 JLINK_ReadReg(R15 (PC))
T7D2C 000:303.643 - 0.012ms returns 0x20000000
T7D2C 000:303.652 JLINK_ClrBPEx(BPHandle = 0x00000001)
T7D2C 000:303.661 - 0.009ms returns 0x00
T7D2C 000:303.671 JLINK_ReadReg(R0)
T7D2C 000:303.680 - 0.008ms returns 0x00000000
T7D2C 000:304.283 JLINK_HasError()
T7D2C 000:304.301 JLINK_WriteReg(R0, 0x00000000)
T7D2C 000:304.312 - 0.010ms returns 0
T7D2C 000:304.320 JLINK_WriteReg(R1, 0x00000400)
T7D2C 000:304.327 - 0.007ms returns 0
T7D2C 000:304.335 JLINK_WriteReg(R2, 0x000000FF)
T7D2C 000:304.342 - 0.007ms returns 0
T7D2C 000:304.350 JLINK_WriteReg(R3, 0x00000000)
T7D2C 000:304.357 - 0.006ms returns 0
T7D2C 000:304.364 JLINK_WriteReg(R4, 0x00000000)
T7D2C 000:304.372 - 0.007ms returns 0
T7D2C 000:304.379 JLINK_WriteReg(R5, 0x00000000)
T7D2C 000:304.386 - 0.007ms returns 0
T7D2C 000:304.394 JLINK_WriteReg(R6, 0x00000000)
T7D2C 000:304.401 - 0.006ms returns 0
T7D2C 000:304.408 JLINK_WriteReg(R7, 0x00000000)
T7D2C 000:304.415 - 0.006ms returns 0
T7D2C 000:304.423 JLINK_WriteReg(R8, 0x00000000)
T7D2C 000:304.430 - 0.007ms returns 0
T7D2C 000:304.438 JLINK_WriteReg(R9, 0x20000248)
T7D2C 000:304.445 - 0.006ms returns 0
T7D2C 000:304.452 JLINK_WriteReg(R10, 0x00000000)
T7D2C 000:304.459 - 0.007ms returns 0
T7D2C 000:304.467 JLINK_WriteReg(R11, 0x00000000)
T7D2C 000:304.473 - 0.006ms returns 0
T7D2C 000:304.481 JLINK_WriteReg(R12, 0x00000000)
T7D2C 000:304.488 - 0.007ms returns 0
T7D2C 000:304.496 JLINK_WriteReg(R13 (SP), 0x20001000)
T7D2C 000:304.504 - 0.007ms returns 0
T7D2C 000:304.511 JLINK_WriteReg(R14, 0x20000001)
T7D2C 000:304.518 - 0.007ms returns 0
T7D2C 000:304.526 JLINK_WriteReg(R15 (PC), 0x20000020)
T7D2C 000:304.533 - 0.007ms returns 0
T7D2C 000:304.541 JLINK_WriteReg(XPSR, 0x01000000)
T7D2C 000:304.548 - 0.006ms returns 0
T7D2C 000:304.555 JLINK_WriteReg(MSP, 0x20001000)
T7D2C 000:304.561 - 0.006ms returns 0
T7D2C 000:304.569 JLINK_WriteReg(PSP, 0x20001000)
T7D2C 000:304.576 - 0.006ms returns 0
T7D2C 000:304.583 JLINK_WriteReg(CFBP, 0x00000000)
T7D2C 000:304.596 - 0.013ms returns 0
T7D2C 000:304.609 JLINK_SetBPEx(Addr = 0x20000000, Type = 0xFFFFFFF2)
T7D2C 000:304.617 - 0.009ms returns 0x00000002
T7D2C 000:304.625 JLINK_Go()
T7D2C 000:304.641   CPU_ReadMem(4 bytes @ 0xE0001000)
T7D2C 000:310.910 - 6.284ms
T7D2C 000:310.939 JLINK_IsHalted()
T7D2C 000:317.271   CPU_ReadMem(2 bytes @ 0x20000000)
T7D2C 000:317.965 - 7.026ms returns TRUE
T7D2C 000:317.983 JLINK_ReadReg(R15 (PC))
T7D2C 000:317.992 - 0.009ms returns 0x20000000
T7D2C 000:318.001 JLINK_ClrBPEx(BPHandle = 0x00000002)
T7D2C 000:318.007 - 0.006ms returns 0x00
T7D2C 000:318.016 JLINK_ReadReg(R0)
T7D2C 000:318.023 - 0.006ms returns 0x00000001
T7D2C 000:318.032 JLINK_HasError()
T7D2C 000:318.041 JLINK_WriteReg(R0, 0x00000000)
T7D2C 000:318.048 - 0.007ms returns 0
T7D2C 000:318.056 JLINK_WriteReg(R1, 0x00000400)
T7D2C 000:318.063 - 0.006ms returns 0
T7D2C 000:318.071 JLINK_WriteReg(R2, 0x000000FF)
T7D2C 000:318.077 - 0.006ms returns 0
T7D2C 000:318.085 JLINK_WriteReg(R3, 0x00000000)
T7D2C 000:318.091 - 0.006ms returns 0
T7D2C 000:318.099 JLINK_WriteReg(R4, 0x00000000)
T7D2C 000:318.105 - 0.006ms returns 0
T7D2C 000:318.114 JLINK_WriteReg(R5, 0x00000000)
T7D2C 000:318.120 - 0.006ms returns 0
T7D2C 000:318.128 JLINK_WriteReg(R6, 0x00000000)
T7D2C 000:318.134 - 0.006ms returns 0
T7D2C 000:318.142 JLINK_WriteReg(R7, 0x00000000)
T7D2C 000:318.149 - 0.006ms returns 0
T7D2C 000:318.157 JLINK_WriteReg(R8, 0x00000000)
T7D2C 000:318.163 - 0.006ms returns 0
T7D2C 000:318.171 JLINK_WriteReg(R9, 0x20000248)
T7D2C 000:318.177 - 0.006ms returns 0
T7D2C 000:318.184 JLINK_WriteReg(R10, 0x00000000)
T7D2C 000:318.191 - 0.006ms returns 0
T7D2C 000:318.199 JLINK_WriteReg(R11, 0x00000000)
T7D2C 000:318.205 - 0.006ms returns 0
T7D2C 000:318.213 JLINK_WriteReg(R12, 0x00000000)
T7D2C 000:318.219 - 0.006ms returns 0
T7D2C 000:318.226 JLINK_WriteReg(R13 (SP), 0x20001000)
T7D2C 000:318.233 - 0.007ms returns 0
T7D2C 000:318.241 JLINK_WriteReg(R14, 0x20000001)
T7D2C 000:318.247 - 0.006ms returns 0
T7D2C 000:318.255 JLINK_WriteReg(R15 (PC), 0x20000070)
T7D2C 000:318.262 - 0.006ms returns 0
T7D2C 000:318.269 JLINK_WriteReg(XPSR, 0x01000000)
T7D2C 000:318.275 - 0.006ms returns 0
T7D2C 000:318.283 JLINK_WriteReg(MSP, 0x20001000)
T7D2C 000:318.289 - 0.006ms returns 0
T7D2C 000:318.297 JLINK_WriteReg(PSP, 0x20001000)
T7D2C 000:318.303 - 0.006ms returns 0
T7D2C 000:318.311 JLINK_WriteReg(CFBP, 0x00000000)
T7D2C 000:318.317 - 0.006ms returns 0
T7D2C 000:318.325 JLINK_SetBPEx(Addr = 0x20000000, Type = 0xFFFFFFF2)
T7D2C 000:318.332 - 0.007ms returns 0x00000003
T7D2C 000:318.341 JLINK_Go()
T7D2C 000:318.351   CPU_ReadMem(4 bytes @ 0xE0001000)
T7D2C 000:324.540 - 6.199ms
T7D2C 000:324.562 JLINK_IsHalted()
T7D2C 000:325.271 - 0.709ms returns FALSE
T7D2C 000:325.290 JLINK_HasError()
T7D2C 000:340.811 JLINK_IsHalted()
T7D2C 000:347.136   CPU_ReadMem(2 bytes @ 0x20000000)
T7D2C 000:347.899 - 7.086ms returns TRUE
T7D2C 000:347.921 JLINK_ReadReg(R15 (PC))
T7D2C 000:347.932 - 0.011ms returns 0x20000000
T7D2C 000:347.941 JLINK_ClrBPEx(BPHandle = 0x00000003)
T7D2C 000:347.955 - 0.012ms returns 0x00
T7D2C 000:347.970 JLINK_ReadReg(R0)
T7D2C 000:347.979 - 0.009ms returns 0x00000000
T7D2C 000:348.820 JLINK_HasError()
T7D2C 000:348.831 JLINK_WriteReg(R0, 0x00000400)
T7D2C 000:348.839 - 0.007ms returns 0
T7D2C 000:348.846 JLINK_WriteReg(R1, 0x00000400)
T7D2C 000:348.851 - 0.005ms returns 0
T7D2C 000:348.857 JLINK_WriteReg(R2, 0x000000FF)
T7D2C 000:348.862 - 0.005ms returns 0
T7D2C 000:348.868 JLINK_WriteReg(R3, 0x00000000)
T7D2C 000:348.873 - 0.005ms returns 0
T7D2C 000:348.878 JLINK_WriteReg(R4, 0x00000000)
T7D2C 000:348.884 - 0.005ms returns 0
T7D2C 000:348.891 JLINK_WriteReg(R5, 0x00000000)
T7D2C 000:348.897 - 0.006ms returns 0
T7D2C 000:348.903 JLINK_WriteReg(R6, 0x00000000)
T7D2C 000:348.908 - 0.004ms returns 0
T7D2C 000:348.912 JLINK_WriteReg(R7, 0x00000000)
T7D2C 000:348.917 - 0.004ms returns 0
T7D2C 000:348.922 JLINK_WriteReg(R8, 0x00000000)
T7D2C 000:348.926 - 0.004ms returns 0
T7D2C 000:348.936 JLINK_WriteReg(R9, 0x20000248)
T7D2C 000:348.941 - 0.004ms returns 0
T7D2C 000:348.946 JLINK_WriteReg(R10, 0x00000000)
T7D2C 000:348.950 - 0.004ms returns 0
T7D2C 000:348.955 JLINK_WriteReg(R11, 0x00000000)
T7D2C 000:348.959 - 0.004ms returns 0
T7D2C 000:348.964 JLINK_WriteReg(R12, 0x00000000)
T7D2C 000:348.968 - 0.004ms returns 0
T7D2C 000:348.973 JLINK_WriteReg(R13 (SP), 0x20001000)
T7D2C 000:348.977 - 0.004ms returns 0
T7D2C 000:348.982 JLINK_WriteReg(R14, 0x20000001)
T7D2C 000:348.986 - 0.004ms returns 0
T7D2C 000:348.991 JLINK_WriteReg(R15 (PC), 0x20000020)
T7D2C 000:348.996 - 0.004ms returns 0
T7D2C 000:349.001 JLINK_WriteReg(XPSR, 0x01000000)
T7D2C 000:349.005 - 0.004ms returns 0
T7D2C 000:349.010 JLINK_WriteReg(MSP, 0x20001000)
T7D2C 000:349.016 - 0.005ms returns 0
T7D2C 000:349.022 JLINK_WriteReg(PSP, 0x20001000)
T7D2C 000:349.028 - 0.005ms returns 0
T7D2C 000:349.034 JLINK_WriteReg(CFBP, 0x00000000)
T7D2C 000:349.038 - 0.004ms returns 0
T7D2C 000:349.045 JLINK_SetBPEx(Addr = 0x20000000, Type = 0xFFFFFFF2)
T7D2C 000:349.051 - 0.006ms returns 0x00000004
T7D2C 000:349.057 JLINK_Go()
T7D2C 000:349.070   CPU_ReadMem(4 bytes @ 0xE0001000)
T7D2C 000:355.287 - 6.227ms
T7D2C 000:355.329 JLINK_IsHalted()
T7D2C 000:361.598   CPU_ReadMem(2 bytes @ 0x20000000)
T7D2C 000:362.359 - 7.030ms returns TRUE
T7D2C 000:362.381 JLINK_ReadReg(R15 (PC))
T7D2C 000:362.393 - 0.012ms returns 0x20000000
T7D2C 000:362.405 JLINK_ClrBPEx(BPHandle = 0x00000004)
T7D2C 000:362.415 - 0.009ms returns 0x00
T7D2C 000:362.426 JLINK_ReadReg(R0)
T7D2C 000:362.435 - 0.009ms returns 0x00000001
T7D2C 000:362.448 JLINK_HasError()
T7D2C 000:362.459 JLINK_WriteReg(R0, 0x00000400)
T7D2C 000:362.469 - 0.009ms returns 0
T7D2C 000:362.480 JLINK_WriteReg(R1, 0x00000400)
T7D2C 000:362.488 - 0.008ms returns 0
T7D2C 000:362.499 JLINK_WriteReg(R2, 0x000000FF)
T7D2C 000:362.508 - 0.008ms returns 0
T7D2C 000:362.519 JLINK_WriteReg(R3, 0x00000000)
T7D2C 000:362.528 - 0.008ms returns 0
T7D2C 000:362.538 JLINK_WriteReg(R4, 0x00000000)
T7D2C 000:362.547 - 0.008ms returns 0
T7D2C 000:362.557 JLINK_WriteReg(R5, 0x00000000)
T7D2C 000:362.566 - 0.008ms returns 0
T7D2C 000:362.576 JLINK_WriteReg(R6, 0x00000000)
T7D2C 000:362.585 - 0.008ms returns 0
T7D2C 000:362.595 JLINK_WriteReg(R7, 0x00000000)
T7D2C 000:362.604 - 0.008ms returns 0
T7D2C 000:362.614 JLINK_WriteReg(R8, 0x00000000)
T7D2C 000:362.623 - 0.008ms returns 0
T7D2C 000:362.634 JLINK_WriteReg(R9, 0x20000248)
T7D2C 000:362.642 - 0.008ms returns 0
T7D2C 000:362.653 JLINK_WriteReg(R10, 0x00000000)
T7D2C 000:362.661 - 0.008ms returns 0
T7D2C 000:362.672 JLINK_WriteReg(R11, 0x00000000)
T7D2C 000:362.680 - 0.008ms returns 0
T7D2C 000:362.691 JLINK_WriteReg(R12, 0x00000000)
T7D2C 000:362.699 - 0.008ms returns 0
T7D2C 000:362.710 JLINK_WriteReg(R13 (SP), 0x20001000)
T7D2C 000:362.719 - 0.009ms returns 0
T7D2C 000:362.729 JLINK_WriteReg(R14, 0x20000001)
T7D2C 000:362.738 - 0.008ms returns 0
T7D2C 000:362.748 JLINK_WriteReg(R15 (PC), 0x20000070)
T7D2C 000:362.756 - 0.008ms returns 0
T7D2C 000:362.768 JLINK_WriteReg(XPSR, 0x01000000)
T7D2C 000:362.776 - 0.008ms returns 0
T7D2C 000:362.786 JLINK_WriteReg(MSP, 0x20001000)
T7D2C 000:362.795 - 0.008ms returns 0
T7D2C 000:362.807 JLINK_WriteReg(PSP, 0x20001000)
T7D2C 000:362.813 - 0.006ms returns 0
T7D2C 000:362.820 JLINK_WriteReg(CFBP, 0x00000000)
T7D2C 000:362.827 - 0.006ms returns 0
T7D2C 000:362.835 JLINK_SetBPEx(Addr = 0x20000000, Type = 0xFFFFFFF2)
T7D2C 000:362.842 - 0.007ms returns 0x00000005
T7D2C 000:362.850 JLINK_Go()
T7D2C 000:362.863   CPU_ReadMem(4 bytes @ 0xE0001000)
T7D2C 000:369.133 - 6.282ms
T7D2C 000:369.159 JLINK_IsHalted()
T7D2C 000:369.910 - 0.750ms returns FALSE
T7D2C 000:369.931 JLINK_HasError()
T7D2C 000:372.055 JLINK_IsHalted()
T7D2C 000:378.367   CPU_ReadMem(2 bytes @ 0x20000000)
T7D2C 000:379.106 - 7.050ms returns TRUE
T7D2C 000:379.124 JLINK_ReadReg(R15 (PC))
T7D2C 000:379.136 - 0.012ms returns 0x20000000
T7D2C 000:379.146 JLINK_ClrBPEx(BPHandle = 0x00000005)
T7D2C 000:379.165 - 0.018ms returns 0x00
T7D2C 000:379.175 JLINK_ReadReg(R0)
T7D2C 000:379.183 - 0.008ms returns 0x00000000
T7D2C 000:380.198 JLINK_HasError()
T7D2C 000:380.216 JLINK_WriteReg(R0, 0x00000800)
T7D2C 000:380.226 - 0.010ms returns 0
T7D2C 000:380.235 JLINK_WriteReg(R1, 0x00000400)
T7D2C 000:380.244 - 0.008ms returns 0
T7D2C 000:380.254 JLINK_WriteReg(R2, 0x000000FF)
T7D2C 000:380.262 - 0.008ms returns 0
T7D2C 000:380.271 JLINK_WriteReg(R3, 0x00000000)
T7D2C 000:380.280 - 0.008ms returns 0
T7D2C 000:380.289 JLINK_WriteReg(R4, 0x00000000)
T7D2C 000:380.297 - 0.008ms returns 0
T7D2C 000:380.307 JLINK_WriteReg(R5, 0x00000000)
T7D2C 000:380.315 - 0.008ms returns 0
T7D2C 000:380.324 JLINK_WriteReg(R6, 0x00000000)
T7D2C 000:380.332 - 0.008ms returns 0
T7D2C 000:380.342 JLINK_WriteReg(R7, 0x00000000)
T7D2C 000:380.350 - 0.008ms returns 0
T7D2C 000:380.360 JLINK_WriteReg(R8, 0x00000000)
T7D2C 000:380.368 - 0.008ms returns 0
T7D2C 000:380.377 JLINK_WriteReg(R9, 0x20000248)
T7D2C 000:380.385 - 0.008ms returns 0
T7D2C 000:380.395 JLINK_WriteReg(R10, 0x00000000)
T7D2C 000:380.403 - 0.008ms returns 0
T7D2C 000:380.412 JLINK_WriteReg(R11, 0x00000000)
T7D2C 000:380.421 - 0.008ms returns 0
T7D2C 000:380.430 JLINK_WriteReg(R12, 0x00000000)
T7D2C 000:380.438 - 0.008ms returns 0
T7D2C 000:380.448 JLINK_WriteReg(R13 (SP), 0x20001000)
T7D2C 000:380.456 - 0.008ms returns 0
T7D2C 000:380.466 JLINK_WriteReg(R14, 0x20000001)
T7D2C 000:380.474 - 0.008ms returns 0
T7D2C 000:380.484 JLINK_WriteReg(R15 (PC), 0x20000020)
T7D2C 000:380.492 - 0.008ms returns 0
T7D2C 000:380.502 JLINK_WriteReg(XPSR, 0x01000000)
T7D2C 000:380.510 - 0.008ms returns 0
T7D2C 000:380.519 JLINK_WriteReg(MSP, 0x20001000)
T7D2C 000:380.527 - 0.008ms returns 0
T7D2C 000:380.537 JLINK_WriteReg(PSP, 0x20001000)
T7D2C 000:380.545 - 0.008ms returns 0
T7D2C 000:380.554 JLINK_WriteReg(CFBP, 0x00000000)
T7D2C 000:380.562 - 0.008ms returns 0
T7D2C 000:380.573 JLINK_SetBPEx(Addr = 0x20000000, Type = 0xFFFFFFF2)
T7D2C 000:380.582 - 0.009ms returns 0x00000006
T7D2C 000:380.591 JLINK_Go()
T7D2C 000:380.606   CPU_ReadMem(4 bytes @ 0xE0001000)
T7D2C 000:386.784 - 6.192ms
T7D2C 000:386.804 JLINK_IsHalted()
T7D2C 000:393.589   CPU_ReadMem(2 bytes @ 0x20000000)
T7D2C 000:394.206 - 7.401ms returns TRUE
T7D2C 000:394.223 JLINK_ReadReg(R15 (PC))
T7D2C 000:394.233 - 0.009ms returns 0x20000000
T7D2C 000:394.241 JLINK_ClrBPEx(BPHandle = 0x00000006)
T7D2C 000:394.247 - 0.006ms returns 0x00
T7D2C 000:394.256 JLINK_ReadReg(R0)
T7D2C 000:394.262 - 0.006ms returns 0x00000001
T7D2C 000:394.271 JLINK_HasError()
T7D2C 000:394.279 JLINK_WriteReg(R0, 0x00000800)
T7D2C 000:394.286 - 0.006ms returns 0
T7D2C 000:394.292 JLINK_WriteReg(R1, 0x00000400)
T7D2C 000:394.299 - 0.006ms returns 0
T7D2C 000:394.306 JLINK_WriteReg(R2, 0x000000FF)
T7D2C 000:394.312 - 0.005ms returns 0
T7D2C 000:394.319 JLINK_WriteReg(R3, 0x00000000)
T7D2C 000:394.325 - 0.006ms returns 0
T7D2C 000:394.332 JLINK_WriteReg(R4, 0x00000000)
T7D2C 000:394.338 - 0.006ms returns 0
T7D2C 000:394.345 JLINK_WriteReg(R5, 0x00000000)
T7D2C 000:394.352 - 0.006ms returns 0
T7D2C 000:394.358 JLINK_WriteReg(R6, 0x00000000)
T7D2C 000:394.364 - 0.005ms returns 0
T7D2C 000:394.371 JLINK_WriteReg(R7, 0x00000000)
T7D2C 000:394.377 - 0.006ms returns 0
T7D2C 000:394.384 JLINK_WriteReg(R8, 0x00000000)
T7D2C 000:394.390 - 0.006ms returns 0
T7D2C 000:394.397 JLINK_WriteReg(R9, 0x20000248)
T7D2C 000:394.403 - 0.006ms returns 0
T7D2C 000:394.410 JLINK_WriteReg(R10, 0x00000000)
T7D2C 000:394.417 - 0.006ms returns 0
T7D2C 000:394.423 JLINK_WriteReg(R11, 0x00000000)
T7D2C 000:394.430 - 0.006ms returns 0
T7D2C 000:394.437 JLINK_WriteReg(R12, 0x00000000)
T7D2C 000:394.443 - 0.006ms returns 0
T7D2C 000:394.450 JLINK_WriteReg(R13 (SP), 0x20001000)
T7D2C 000:394.456 - 0.006ms returns 0
T7D2C 000:394.463 JLINK_WriteReg(R14, 0x20000001)
T7D2C 000:394.469 - 0.006ms returns 0
T7D2C 000:394.476 JLINK_WriteReg(R15 (PC), 0x20000070)
T7D2C 000:394.482 - 0.006ms returns 0
T7D2C 000:394.497 JLINK_WriteReg(XPSR, 0x01000000)
T7D2C 000:394.504 - 0.006ms returns 0
T7D2C 000:394.510 JLINK_WriteReg(MSP, 0x20001000)
T7D2C 000:394.517 - 0.006ms returns 0
T7D2C 000:394.524 JLINK_WriteReg(PSP, 0x20001000)
T7D2C 000:394.530 - 0.006ms returns 0
T7D2C 000:394.537 JLINK_WriteReg(CFBP, 0x00000000)
T7D2C 000:394.543 - 0.006ms returns 0
T7D2C 000:394.551 JLINK_SetBPEx(Addr = 0x20000000, Type = 0xFFFFFFF2)
T7D2C 000:394.557 - 0.006ms returns 0x00000007
T7D2C 000:394.564 JLINK_Go()
T7D2C 000:394.576   CPU_ReadMem(4 bytes @ 0xE0001000)
T7D2C 000:400.983 - 6.418ms
T7D2C 000:401.010 JLINK_IsHalted()
T7D2C 000:401.767 - 0.755ms returns FALSE
T7D2C 000:401.788 JLINK_HasError()
T7D2C 000:402.996 JLINK_IsHalted()
T7D2C 000:409.384   CPU_ReadMem(2 bytes @ 0x20000000)
T7D2C 000:410.113 - 7.116ms returns TRUE
T7D2C 000:410.130 JLINK_ReadReg(R15 (PC))
T7D2C 000:410.142 - 0.012ms returns 0x20000000
T7D2C 000:410.153 JLINK_ClrBPEx(BPHandle = 0x00000007)
T7D2C 000:410.161 - 0.008ms returns 0x00
T7D2C 000:410.171 JLINK_ReadReg(R0)
T7D2C 000:410.180 - 0.008ms returns 0x00000000
T7D2C 000:411.194 JLINK_HasError()
T7D2C 000:411.210 JLINK_WriteReg(R0, 0x00000C00)
T7D2C 000:411.219 - 0.008ms returns 0
T7D2C 000:411.226 JLINK_WriteReg(R1, 0x00000400)
T7D2C 000:411.233 - 0.006ms returns 0
T7D2C 000:411.241 JLINK_WriteReg(R2, 0x000000FF)
T7D2C 000:411.247 - 0.006ms returns 0
T7D2C 000:411.254 JLINK_WriteReg(R3, 0x00000000)
T7D2C 000:411.261 - 0.006ms returns 0
T7D2C 000:411.268 JLINK_WriteReg(R4, 0x00000000)
T7D2C 000:411.275 - 0.006ms returns 0
T7D2C 000:411.282 JLINK_WriteReg(R5, 0x00000000)
T7D2C 000:411.289 - 0.006ms returns 0
T7D2C 000:411.296 JLINK_WriteReg(R6, 0x00000000)
T7D2C 000:411.303 - 0.006ms returns 0
T7D2C 000:411.310 JLINK_WriteReg(R7, 0x00000000)
T7D2C 000:411.317 - 0.006ms returns 0
T7D2C 000:411.324 JLINK_WriteReg(R8, 0x00000000)
T7D2C 000:411.331 - 0.006ms returns 0
T7D2C 000:411.338 JLINK_WriteReg(R9, 0x20000248)
T7D2C 000:411.345 - 0.006ms returns 0
T7D2C 000:411.352 JLINK_WriteReg(R10, 0x00000000)
T7D2C 000:411.359 - 0.006ms returns 0
T7D2C 000:411.366 JLINK_WriteReg(R11, 0x00000000)
T7D2C 000:411.373 - 0.006ms returns 0
T7D2C 000:411.380 JLINK_WriteReg(R12, 0x00000000)
T7D2C 000:411.387 - 0.006ms returns 0
T7D2C 000:411.394 JLINK_WriteReg(R13 (SP), 0x20001000)
T7D2C 000:411.401 - 0.007ms returns 0
T7D2C 000:411.409 JLINK_WriteReg(R14, 0x20000001)
T7D2C 000:411.415 - 0.006ms returns 0
T7D2C 000:411.423 JLINK_WriteReg(R15 (PC), 0x20000020)
T7D2C 000:411.429 - 0.006ms returns 0
T7D2C 000:411.437 JLINK_WriteReg(XPSR, 0x01000000)
T7D2C 000:411.443 - 0.006ms returns 0
T7D2C 000:411.451 JLINK_WriteReg(MSP, 0x20001000)
T7D2C 000:411.458 - 0.006ms returns 0
T7D2C 000:411.465 JLINK_WriteReg(PSP, 0x20001000)
T7D2C 000:411.471 - 0.006ms returns 0
T7D2C 000:411.479 JLINK_WriteReg(CFBP, 0x00000000)
T7D2C 000:411.486 - 0.006ms returns 0
T7D2C 000:411.494 JLINK_SetBPEx(Addr = 0x20000000, Type = 0xFFFFFFF2)
T7D2C 000:411.501 - 0.007ms returns 0x00000008
T7D2C 000:411.508 JLINK_Go()
T7D2C 000:411.521   CPU_ReadMem(4 bytes @ 0xE0001000)
T7D2C 000:417.792 - 6.283ms
T7D2C 000:417.809 JLINK_IsHalted()
T7D2C 000:424.028   CPU_ReadMem(2 bytes @ 0x20000000)
T7D2C 000:425.116 - 7.306ms returns TRUE
T7D2C 000:425.139 JLINK_ReadReg(R15 (PC))
T7D2C 000:425.150 - 0.011ms returns 0x20000000
T7D2C 000:425.160 JLINK_ClrBPEx(BPHandle = 0x00000008)
T7D2C 000:425.169 - 0.008ms returns 0x00
T7D2C 000:425.179 JLINK_ReadReg(R0)
T7D2C 000:425.188 - 0.008ms returns 0x00000001
T7D2C 000:425.198 JLINK_HasError()
T7D2C 000:425.209 JLINK_WriteReg(R0, 0x00000C00)
T7D2C 000:425.220 - 0.010ms returns 0
T7D2C 000:425.235 JLINK_WriteReg(R1, 0x00000400)
T7D2C 000:425.244 - 0.009ms returns 0
T7D2C 000:425.254 JLINK_WriteReg(R2, 0x000000FF)
T7D2C 000:425.262 - 0.008ms returns 0
T7D2C 000:425.272 JLINK_WriteReg(R3, 0x00000000)
T7D2C 000:425.281 - 0.008ms returns 0
T7D2C 000:425.290 JLINK_WriteReg(R4, 0x00000000)
T7D2C 000:425.298 - 0.008ms returns 0
T7D2C 000:425.313 JLINK_WriteReg(R5, 0x00000000)
T7D2C 000:425.325 - 0.012ms returns 0
T7D2C 000:425.335 JLINK_WriteReg(R6, 0x00000000)
T7D2C 000:425.344 - 0.008ms returns 0
T7D2C 000:425.353 JLINK_WriteReg(R7, 0x00000000)
T7D2C 000:425.362 - 0.008ms returns 0
T7D2C 000:425.372 JLINK_WriteReg(R8, 0x00000000)
T7D2C 000:425.380 - 0.008ms returns 0
T7D2C 000:425.390 JLINK_WriteReg(R9, 0x20000248)
T7D2C 000:425.398 - 0.008ms returns 0
T7D2C 000:425.409 JLINK_WriteReg(R10, 0x00000000)
T7D2C 000:425.417 - 0.008ms returns 0
T7D2C 000:425.427 JLINK_WriteReg(R11, 0x00000000)
T7D2C 000:425.435 - 0.008ms returns 0
T7D2C 000:425.445 JLINK_WriteReg(R12, 0x00000000)
T7D2C 000:425.453 - 0.008ms returns 0
T7D2C 000:425.463 JLINK_WriteReg(R13 (SP), 0x20001000)
T7D2C 000:425.472 - 0.008ms returns 0
T7D2C 000:425.481 JLINK_WriteReg(R14, 0x20000001)
T7D2C 000:425.490 - 0.008ms returns 0
T7D2C 000:425.499 JLINK_WriteReg(R15 (PC), 0x20000070)
T7D2C 000:425.508 - 0.008ms returns 0
T7D2C 000:425.518 JLINK_WriteReg(XPSR, 0x01000000)
T7D2C 000:425.526 - 0.008ms returns 0
T7D2C 000:425.536 JLINK_WriteReg(MSP, 0x20001000)
T7D2C 000:425.544 - 0.008ms returns 0
T7D2C 000:425.553 JLINK_WriteReg(PSP, 0x20001000)
T7D2C 000:425.562 - 0.008ms returns 0
T7D2C 000:425.571 JLINK_WriteReg(CFBP, 0x00000000)
T7D2C 000:425.580 - 0.008ms returns 0
T7D2C 000:425.590 JLINK_SetBPEx(Addr = 0x20000000, Type = 0xFFFFFFF2)
T7D2C 000:425.599 - 0.009ms returns 0x00000009
T7D2C 000:425.609 JLINK_Go()
T7D2C 000:425.624   CPU_ReadMem(4 bytes @ 0xE0001000)
T7D2C 000:432.060 - 6.449ms
T7D2C 000:432.087 JLINK_IsHalted()
T7D2C 000:432.773 - 0.686ms returns FALSE
T7D2C 000:432.788 JLINK_HasError()
T7D2C 000:438.099 JLINK_IsHalted()
T7D2C 000:444.367   CPU_ReadMem(2 bytes @ 0x20000000)
T7D2C 000:445.090 - 6.991ms returns TRUE
T7D2C 000:445.102 JLINK_ReadReg(R15 (PC))
T7D2C 000:445.110 - 0.007ms returns 0x20000000
T7D2C 000:445.117 JLINK_ClrBPEx(BPHandle = 0x00000009)
T7D2C 000:445.124 - 0.006ms returns 0x00
T7D2C 000:445.131 JLINK_ReadReg(R0)
T7D2C 000:445.137 - 0.006ms returns 0x00000000
T7D2C 000:445.751 JLINK_HasError()
T7D2C 000:445.760 JLINK_WriteReg(R0, 0x00000001)
T7D2C 000:445.766 - 0.005ms returns 0
T7D2C 000:445.771 JLINK_WriteReg(R1, 0x00000400)
T7D2C 000:445.775 - 0.004ms returns 0
T7D2C 000:445.780 JLINK_WriteReg(R2, 0x000000FF)
T7D2C 000:445.784 - 0.004ms returns 0
T7D2C 000:445.789 JLINK_WriteReg(R3, 0x00000000)
T7D2C 000:445.793 - 0.004ms returns 0
T7D2C 000:445.798 JLINK_WriteReg(R4, 0x00000000)
T7D2C 000:445.802 - 0.004ms returns 0
T7D2C 000:445.807 JLINK_WriteReg(R5, 0x00000000)
T7D2C 000:445.811 - 0.004ms returns 0
T7D2C 000:445.816 JLINK_WriteReg(R6, 0x00000000)
T7D2C 000:445.820 - 0.004ms returns 0
T7D2C 000:445.825 JLINK_WriteReg(R7, 0x00000000)
T7D2C 000:445.829 - 0.004ms returns 0
T7D2C 000:445.834 JLINK_WriteReg(R8, 0x00000000)
T7D2C 000:445.838 - 0.004ms returns 0
T7D2C 000:445.843 JLINK_WriteReg(R9, 0x20000248)
T7D2C 000:445.847 - 0.004ms returns 0
T7D2C 000:445.852 JLINK_WriteReg(R10, 0x00000000)
T7D2C 000:445.856 - 0.004ms returns 0
T7D2C 000:445.861 JLINK_WriteReg(R11, 0x00000000)
T7D2C 000:445.865 - 0.004ms returns 0
T7D2C 000:445.870 JLINK_WriteReg(R12, 0x00000000)
T7D2C 000:445.874 - 0.004ms returns 0
T7D2C 000:445.879 JLINK_WriteReg(R13 (SP), 0x20001000)
T7D2C 000:445.884 - 0.004ms returns 0
T7D2C 000:445.889 JLINK_WriteReg(R14, 0x20000001)
T7D2C 000:445.893 - 0.004ms returns 0
T7D2C 000:445.898 JLINK_WriteReg(R15 (PC), 0x2000006C)
T7D2C 000:445.902 - 0.004ms returns 0
T7D2C 000:445.907 JLINK_WriteReg(XPSR, 0x01000000)
T7D2C 000:445.912 - 0.004ms returns 0
T7D2C 000:445.916 JLINK_WriteReg(MSP, 0x20001000)
T7D2C 000:445.921 - 0.004ms returns 0
T7D2C 000:445.926 JLINK_WriteReg(PSP, 0x20001000)
T7D2C 000:445.930 - 0.004ms returns 0
T7D2C 000:445.935 JLINK_WriteReg(CFBP, 0x00000000)
T7D2C 000:445.939 - 0.004ms returns 0
T7D2C 000:445.944 JLINK_SetBPEx(Addr = 0x20000000, Type = 0xFFFFFFF2)
T7D2C 000:445.949 - 0.004ms returns 0x0000000A
T7D2C 000:445.954 JLINK_Go()
T7D2C 000:445.965   CPU_ReadMem(4 bytes @ 0xE0001000)
T7D2C 000:452.165 - 6.210ms
T7D2C 000:452.182 JLINK_IsHalted()
T7D2C 000:458.486   CPU_ReadMem(2 bytes @ 0x20000000)
T7D2C 000:459.250 - 7.066ms returns TRUE
T7D2C 000:459.282 JLINK_ReadReg(R15 (PC))
T7D2C 000:459.297 - 0.015ms returns 0x20000000
T7D2C 000:459.312 JLINK_ClrBPEx(BPHandle = 0x0000000A)
T7D2C 000:459.324 - 0.011ms returns 0x00
T7D2C 000:459.338 JLINK_ReadReg(R0)
T7D2C 000:459.349 - 0.011ms returns 0x00000000
T7D2C 000:517.636 JLINK_WriteMem(0x20000000, 0x24C Bytes, ...)
T7D2C 000:517.649   Data:  00 BE 0A E0 0D 78 2D 06 68 40 08 24 40 00 00 D3 ...
T7D2C 000:517.670   CPU_WriteMem(588 bytes @ 0x20000000)
T7D2C 000:525.503 - 7.866ms returns 0x24C
T7D2C 000:525.564 JLINK_HasError()
T7D2C 000:525.575 JLINK_WriteReg(R0, 0x00000000)
T7D2C 000:525.585 - 0.010ms returns 0
T7D2C 000:525.593 JLINK_WriteReg(R1, 0x01F78A40)
T7D2C 000:525.600 - 0.006ms returns 0
T7D2C 000:525.607 JLINK_WriteReg(R2, 0x00000002)
T7D2C 000:525.614 - 0.006ms returns 0
T7D2C 000:525.621 JLINK_WriteReg(R3, 0x00000000)
T7D2C 000:525.628 - 0.006ms returns 0
T7D2C 000:525.635 JLINK_WriteReg(R4, 0x00000000)
T7D2C 000:525.641 - 0.006ms returns 0
T7D2C 000:525.649 JLINK_WriteReg(R5, 0x00000000)
T7D2C 000:525.655 - 0.006ms returns 0
T7D2C 000:525.663 JLINK_WriteReg(R6, 0x00000000)
T7D2C 000:525.669 - 0.006ms returns 0
T7D2C 000:525.676 JLINK_WriteReg(R7, 0x00000000)
T7D2C 000:525.683 - 0.006ms returns 0
T7D2C 000:525.691 JLINK_WriteReg(R8, 0x00000000)
T7D2C 000:525.697 - 0.006ms returns 0
T7D2C 000:525.704 JLINK_WriteReg(R9, 0x20000248)
T7D2C 000:525.711 - 0.006ms returns 0
T7D2C 000:525.718 JLINK_WriteReg(R10, 0x00000000)
T7D2C 000:525.725 - 0.006ms returns 0
T7D2C 000:525.732 JLINK_WriteReg(R11, 0x00000000)
T7D2C 000:525.739 - 0.006ms returns 0
T7D2C 000:525.746 JLINK_WriteReg(R12, 0x00000000)
T7D2C 000:525.753 - 0.006ms returns 0
T7D2C 000:525.760 JLINK_WriteReg(R13 (SP), 0x20001000)
T7D2C 000:525.767 - 0.007ms returns 0
T7D2C 000:525.775 JLINK_WriteReg(R14, 0x20000001)
T7D2C 000:525.781 - 0.006ms returns 0
T7D2C 000:525.789 JLINK_WriteReg(R15 (PC), 0x20000038)
T7D2C 000:525.795 - 0.006ms returns 0
T7D2C 000:525.803 JLINK_WriteReg(XPSR, 0x01000000)
T7D2C 000:525.809 - 0.006ms returns 0
T7D2C 000:525.817 JLINK_WriteReg(MSP, 0x20001000)
T7D2C 000:525.823 - 0.006ms returns 0
T7D2C 000:525.831 JLINK_WriteReg(PSP, 0x20001000)
T7D2C 000:525.837 - 0.006ms returns 0
T7D2C 000:525.844 JLINK_WriteReg(CFBP, 0x00000000)
T7D2C 000:525.851 - 0.006ms returns 0
T7D2C 000:525.859 JLINK_SetBPEx(Addr = 0x20000000, Type = 0xFFFFFFF2)
T7D2C 000:525.871   CPU_ReadMem(2 bytes @ 0x20000000)
T7D2C 000:526.623 - 0.764ms returns 0x0000000B
T7D2C 000:526.638 JLINK_Go()
T7D2C 000:526.648   CPU_WriteMem(2 bytes @ 0x20000000)
T7D2C 000:527.361   CPU_ReadMem(4 bytes @ 0xE0001000)
T7D2C 000:533.538 - 6.899ms
T7D2C 000:533.562 JLINK_IsHalted()
T7D2C 000:539.872   CPU_ReadMem(2 bytes @ 0x20000000)
T7D2C 000:540.604 - 7.042ms returns TRUE
T7D2C 000:540.617 JLINK_ReadReg(R15 (PC))
T7D2C 000:540.625 - 0.007ms returns 0x20000000
T7D2C 000:540.636 JLINK_ClrBPEx(BPHandle = 0x0000000B)
T7D2C 000:540.642 - 0.006ms returns 0x00
T7D2C 000:540.653 JLINK_ReadReg(R0)
T7D2C 000:540.660 - 0.006ms returns 0x00000000
T7D2C 000:541.012 JLINK_WriteMem(0x2000024C, 0x100 Bytes, ...)
T7D2C 000:541.021   Data:  68 01 00 20 6D 01 00 00 71 01 00 00 73 01 00 00 ...
T7D2C 000:541.036   CPU_WriteMem(256 bytes @ 0x2000024C)
T7D2C 000:544.746 - 3.733ms returns 0x100
T7D2C 000:544.769 JLINK_HasError()
T7D2C 000:544.781 JLINK_WriteReg(R0, 0x00000000)
T7D2C 000:544.794 - 0.013ms returns 0
T7D2C 000:544.806 JLINK_WriteReg(R1, 0x00000100)
T7D2C 000:544.816 - 0.010ms returns 0
T7D2C 000:544.827 JLINK_WriteReg(R2, 0x2000024C)
T7D2C 000:544.837 - 0.009ms returns 0
T7D2C 000:544.847 JLINK_WriteReg(R3, 0x00000000)
T7D2C 000:544.857 - 0.010ms returns 0
T7D2C 000:544.869 JLINK_WriteReg(R4, 0x00000000)
T7D2C 000:544.879 - 0.009ms returns 0
T7D2C 000:544.890 JLINK_WriteReg(R5, 0x00000000)
T7D2C 000:544.908 - 0.018ms returns 0
T7D2C 000:544.925 JLINK_WriteReg(R6, 0x00000000)
T7D2C 000:544.935 - 0.010ms returns 0
T7D2C 000:544.946 JLINK_WriteReg(R7, 0x00000000)
T7D2C 000:544.956 - 0.010ms returns 0
T7D2C 000:544.967 JLINK_WriteReg(R8, 0x00000000)
T7D2C 000:544.977 - 0.010ms returns 0
T7D2C 000:544.989 JLINK_WriteReg(R9, 0x20000248)
T7D2C 000:545.003 - 0.014ms returns 0
T7D2C 000:545.015 JLINK_WriteReg(R10, 0x00000000)
T7D2C 000:545.025 - 0.010ms returns 0
T7D2C 000:545.037 JLINK_WriteReg(R11, 0x00000000)
T7D2C 000:545.046 - 0.009ms returns 0
T7D2C 000:545.058 JLINK_WriteReg(R12, 0x00000000)
T7D2C 000:545.068 - 0.010ms returns 0
T7D2C 000:545.080 JLINK_WriteReg(R13 (SP), 0x20001000)
T7D2C 000:545.090 - 0.010ms returns 0
T7D2C 000:545.102 JLINK_WriteReg(R14, 0x20000001)
T7D2C 000:545.112 - 0.009ms returns 0
T7D2C 000:545.123 JLINK_WriteReg(R15 (PC), 0x200000F8)
T7D2C 000:545.133 - 0.010ms returns 0
T7D2C 000:545.145 JLINK_WriteReg(XPSR, 0x01000000)
T7D2C 000:545.154 - 0.010ms returns 0
T7D2C 000:545.165 JLINK_WriteReg(MSP, 0x20001000)
T7D2C 000:545.175 - 0.010ms returns 0
T7D2C 000:545.186 JLINK_WriteReg(PSP, 0x20001000)
T7D2C 000:545.196 - 0.010ms returns 0
T7D2C 000:545.207 JLINK_WriteReg(CFBP, 0x00000000)
T7D2C 000:545.217 - 0.010ms returns 0
T7D2C 000:545.228 JLINK_SetBPEx(Addr = 0x20000000, Type = 0xFFFFFFF2)
T7D2C 000:545.241 - 0.012ms returns 0x0000000C
T7D2C 000:545.249 JLINK_Go()
T7D2C 000:545.262   CPU_ReadMem(4 bytes @ 0xE0001000)
T7D2C 000:551.655 - 6.406ms
T7D2C 000:551.684 JLINK_IsHalted()
T7D2C 000:552.488 - 0.803ms returns FALSE
T7D2C 000:552.508 JLINK_HasError()
T7D2C 000:558.515 JLINK_IsHalted()
T7D2C 000:564.873   CPU_ReadMem(2 bytes @ 0x20000000)
T7D2C 000:565.609 - 7.093ms returns TRUE
T7D2C 000:565.626 JLINK_ReadReg(R15 (PC))
T7D2C 000:565.637 - 0.011ms returns 0x20000000
T7D2C 000:565.647 JLINK_ClrBPEx(BPHandle = 0x0000000C)
T7D2C 000:565.685 - 0.037ms returns 0x00
T7D2C 000:565.694 JLINK_ReadReg(R0)
T7D2C 000:565.700 - 0.006ms returns 0x00000000
T7D2C 000:566.402 JLINK_WriteMem(0x2000024C, 0x100 Bytes, ...)
T7D2C 000:566.415   Data:  01 26 33 42 00 D0 FB 1A 33 43 98 47 54 46 5D 46 ...
T7D2C 000:566.430   CPU_WriteMem(256 bytes @ 0x2000024C)
T7D2C 000:570.126 - 3.724ms returns 0x100
T7D2C 000:570.151 JLINK_HasError()
T7D2C 000:570.162 JLINK_WriteReg(R0, 0x00000100)
T7D2C 000:570.173 - 0.011ms returns 0
T7D2C 000:570.183 JLINK_WriteReg(R1, 0x00000100)
T7D2C 000:570.192 - 0.008ms returns 0
T7D2C 000:570.201 JLINK_WriteReg(R2, 0x2000024C)
T7D2C 000:570.209 - 0.008ms returns 0
T7D2C 000:570.219 JLINK_WriteReg(R3, 0x00000000)
T7D2C 000:570.227 - 0.008ms returns 0
T7D2C 000:570.236 JLINK_WriteReg(R4, 0x00000000)
T7D2C 000:570.245 - 0.008ms returns 0
T7D2C 000:570.254 JLINK_WriteReg(R5, 0x00000000)
T7D2C 000:570.262 - 0.008ms returns 0
T7D2C 000:570.272 JLINK_WriteReg(R6, 0x00000000)
T7D2C 000:570.280 - 0.008ms returns 0
T7D2C 000:570.289 JLINK_WriteReg(R7, 0x00000000)
T7D2C 000:570.297 - 0.008ms returns 0
T7D2C 000:570.307 JLINK_WriteReg(R8, 0x00000000)
T7D2C 000:570.315 - 0.008ms returns 0
T7D2C 000:570.324 JLINK_WriteReg(R9, 0x20000248)
T7D2C 000:570.332 - 0.008ms returns 0
T7D2C 000:570.342 JLINK_WriteReg(R10, 0x00000000)
T7D2C 000:570.350 - 0.008ms returns 0
T7D2C 000:570.359 JLINK_WriteReg(R11, 0x00000000)
T7D2C 000:570.367 - 0.008ms returns 0
T7D2C 000:570.377 JLINK_WriteReg(R12, 0x00000000)
T7D2C 000:570.385 - 0.008ms returns 0
T7D2C 000:570.395 JLINK_WriteReg(R13 (SP), 0x20001000)
T7D2C 000:570.404 - 0.009ms returns 0
T7D2C 000:570.413 JLINK_WriteReg(R14, 0x20000001)
T7D2C 000:570.421 - 0.008ms returns 0
T7D2C 000:570.431 JLINK_WriteReg(R15 (PC), 0x200000F8)
T7D2C 000:570.439 - 0.008ms returns 0
T7D2C 000:570.448 JLINK_WriteReg(XPSR, 0x01000000)
T7D2C 000:570.457 - 0.008ms returns 0
T7D2C 000:570.466 JLINK_WriteReg(MSP, 0x20001000)
T7D2C 000:570.474 - 0.008ms returns 0
T7D2C 000:570.483 JLINK_WriteReg(PSP, 0x20001000)
T7D2C 000:570.491 - 0.008ms returns 0
T7D2C 000:570.501 JLINK_WriteReg(CFBP, 0x00000000)
T7D2C 000:570.514 - 0.013ms returns 0
T7D2C 000:570.529 JLINK_SetBPEx(Addr = 0x20000000, Type = 0xFFFFFFF2)
T7D2C 000:570.539 - 0.009ms returns 0x0000000D
T7D2C 000:570.549 JLINK_Go()
T7D2C 000:570.565   CPU_ReadMem(4 bytes @ 0xE0001000)
T7D2C 000:576.788 - 6.238ms
T7D2C 000:576.811 JLINK_IsHalted()
T7D2C 000:577.523 - 0.711ms returns FALSE
T7D2C 000:577.540 JLINK_HasError()
T7D2C 000:579.509 JLINK_IsHalted()
T7D2C 000:585.848   CPU_ReadMem(2 bytes @ 0x20000000)
T7D2C 000:586.460 - 6.949ms returns TRUE
T7D2C 000:586.478 JLINK_ReadReg(R15 (PC))
T7D2C 000:586.488 - 0.010ms returns 0x20000000
T7D2C 000:586.497 JLINK_ClrBPEx(BPHandle = 0x0000000D)
T7D2C 000:586.504 - 0.007ms returns 0x00
T7D2C 000:586.513 JLINK_ReadReg(R0)
T7D2C 000:586.521 - 0.008ms returns 0x00000000
T7D2C 000:587.228 JLINK_WriteMem(0x2000024C, 0x100 Bytes, ...)
T7D2C 000:587.241   Data:  70 47 81 1E 09 1F 00 BF FC D2 70 47 B0 B5 B0 20 ...
T7D2C 000:587.259   CPU_WriteMem(256 bytes @ 0x2000024C)
T7D2C 000:591.007 - 3.778ms returns 0x100
T7D2C 000:591.028 JLINK_HasError()
T7D2C 000:591.040 JLINK_WriteReg(R0, 0x00000200)
T7D2C 000:591.051 - 0.011ms returns 0
T7D2C 000:591.060 JLINK_WriteReg(R1, 0x00000100)
T7D2C 000:591.069 - 0.009ms returns 0
T7D2C 000:591.079 JLINK_WriteReg(R2, 0x2000024C)
T7D2C 000:591.088 - 0.008ms returns 0
T7D2C 000:591.097 JLINK_WriteReg(R3, 0x00000000)
T7D2C 000:591.106 - 0.008ms returns 0
T7D2C 000:591.115 JLINK_WriteReg(R4, 0x00000000)
T7D2C 000:591.123 - 0.008ms returns 0
T7D2C 000:591.133 JLINK_WriteReg(R5, 0x00000000)
T7D2C 000:591.141 - 0.008ms returns 0
T7D2C 000:591.150 JLINK_WriteReg(R6, 0x00000000)
T7D2C 000:591.159 - 0.008ms returns 0
T7D2C 000:591.168 JLINK_WriteReg(R7, 0x00000000)
T7D2C 000:591.176 - 0.008ms returns 0
T7D2C 000:591.185 JLINK_WriteReg(R8, 0x00000000)
T7D2C 000:591.194 - 0.008ms returns 0
T7D2C 000:591.203 JLINK_WriteReg(R9, 0x20000248)
T7D2C 000:591.211 - 0.008ms returns 0
T7D2C 000:591.221 JLINK_WriteReg(R10, 0x00000000)
T7D2C 000:591.229 - 0.008ms returns 0
T7D2C 000:591.238 JLINK_WriteReg(R11, 0x00000000)
T7D2C 000:591.246 - 0.008ms returns 0
T7D2C 000:591.256 JLINK_WriteReg(R12, 0x00000000)
T7D2C 000:591.264 - 0.008ms returns 0
T7D2C 000:591.274 JLINK_WriteReg(R13 (SP), 0x20001000)
T7D2C 000:591.283 - 0.009ms returns 0
T7D2C 000:591.292 JLINK_WriteReg(R14, 0x20000001)
T7D2C 000:591.301 - 0.008ms returns 0
T7D2C 000:591.311 JLINK_WriteReg(R15 (PC), 0x200000F8)
T7D2C 000:591.319 - 0.008ms returns 0
T7D2C 000:591.329 JLINK_WriteReg(XPSR, 0x01000000)
T7D2C 000:591.337 - 0.008ms returns 0
T7D2C 000:591.347 JLINK_WriteReg(MSP, 0x20001000)
T7D2C 000:591.355 - 0.008ms returns 0
T7D2C 000:591.364 JLINK_WriteReg(PSP, 0x20001000)
T7D2C 000:591.372 - 0.008ms returns 0
T7D2C 000:591.382 JLINK_WriteReg(CFBP, 0x00000000)
T7D2C 000:591.390 - 0.008ms returns 0
T7D2C 000:591.400 JLINK_SetBPEx(Addr = 0x20000000, Type = 0xFFFFFFF2)
T7D2C 000:591.410 - 0.009ms returns 0x0000000E
T7D2C 000:591.419 JLINK_Go()
T7D2C 000:591.435   CPU_ReadMem(4 bytes @ 0xE0001000)
T7D2C 000:597.652 - 6.232ms
T7D2C 000:597.666 JLINK_IsHalted()
T7D2C 000:598.401 - 0.734ms returns FALSE
T7D2C 000:598.416 JLINK_HasError()
T7D2C 000:599.865 JLINK_IsHalted()
T7D2C 000:606.277   CPU_ReadMem(2 bytes @ 0x20000000)
T7D2C 000:607.105 - 7.239ms returns TRUE
T7D2C 000:607.125 JLINK_ReadReg(R15 (PC))
T7D2C 000:607.138 - 0.012ms returns 0x20000000
T7D2C 000:607.149 JLINK_ClrBPEx(BPHandle = 0x0000000E)
T7D2C 000:607.158 - 0.009ms returns 0x00
T7D2C 000:607.168 JLINK_ReadReg(R0)
T7D2C 000:607.177 - 0.008ms returns 0x00000000
T7D2C 000:607.957 JLINK_WriteMem(0x2000024C, 0x100 Bytes, ...)
T7D2C 000:607.968   Data:  00 F0 E0 F8 10 20 00 F0 DD F8 20 46 00 F0 DA F8 ...
T7D2C 000:607.983   CPU_WriteMem(256 bytes @ 0x2000024C)
T7D2C 000:611.617 - 3.660ms returns 0x100
T7D2C 000:611.637 JLINK_HasError()
T7D2C 000:611.648 JLINK_WriteReg(R0, 0x00000300)
T7D2C 000:611.659 - 0.011ms returns 0
T7D2C 000:611.668 JLINK_WriteReg(R1, 0x00000100)
T7D2C 000:611.677 - 0.008ms returns 0
T7D2C 000:611.698 JLINK_WriteReg(R2, 0x2000024C)
T7D2C 000:611.706 - 0.008ms returns 0
T7D2C 000:611.715 JLINK_WriteReg(R3, 0x00000000)
T7D2C 000:611.724 - 0.008ms returns 0
T7D2C 000:611.733 JLINK_WriteReg(R4, 0x00000000)
T7D2C 000:611.741 - 0.008ms returns 0
T7D2C 000:611.750 JLINK_WriteReg(R5, 0x00000000)
T7D2C 000:611.759 - 0.008ms returns 0
T7D2C 000:611.768 JLINK_WriteReg(R6, 0x00000000)
T7D2C 000:611.777 - 0.009ms returns 0
T7D2C 000:611.787 JLINK_WriteReg(R7, 0x00000000)
T7D2C 000:611.795 - 0.008ms returns 0
T7D2C 000:611.805 JLINK_WriteReg(R8, 0x00000000)
T7D2C 000:611.813 - 0.008ms returns 0
T7D2C 000:611.822 JLINK_WriteReg(R9, 0x20000248)
T7D2C 000:611.830 - 0.008ms returns 0
T7D2C 000:611.840 JLINK_WriteReg(R10, 0x00000000)
T7D2C 000:611.848 - 0.008ms returns 0
